T0978 000:000.329   SEGGER J-Link V7.50 Log File
T0978 000:000.425   DLL Compiled: Jul  1 2021 17:37:28
T0978 000:000.430   Logging started @ 2024-01-15 03:04
T0978 000:000.434 - 0.436ms
T0978 000:000.442 JLINK_GetDLLVersion()
T0978 000:000.447 - 0.007ms returns 75000
T0978 000:001.072 JLINK_OpenEx(...)
T0978 000:006.518   Firmware: J-Link V9 compiled May  7 2021 16:26:12
T0978 000:006.815   Firmware: J-Link V9 compiled May  7 2021 16:26:12
T0978 000:006.992   Decompressing FW timestamp took 140 us
T0978 000:012.770   Hardware: V9.60
T0978 000:012.794   S/N: 69665566
T0978 000:012.800   OEM: SEGGER
T0978 000:012.806   Feature(s): RDI, GDB, FlashDL, FlashBP, JFlash
T0978 000:013.631   TELNET listener socket opened on port 19021
T0978 000:013.770   WEBSRV Starting webserver
T0978 000:013.926   WEBSRV Webserver running on local port 19080
T0978 000:013.935 - 12.865ms returns "O.K."
T0978 000:014.011 JLINK_ExecCommand("ProjectFile=D:\Soucre\Airsensor/Air_Sensor.elf.jlink", ...). 
T0978 000:023.563 - 9.564ms returns 0x00
T0978 000:024.052 JLINK_ExecCommand("device=R7FA4M2AC", ...). 
T0978 000:029.788   Device "R7FA4M2AC" selected.
T0978 000:030.069 - 6.013ms returns 0x00
T0978 000:030.094 JLINK_ReadMem(0xE000EDF0, 0x4 Bytes, ...)
T0978 000:030.226   ConfigTargetSettings() start
T0978 000:030.235    J-Link Script File: Executing ConfigTargetSettings()
T0978 000:030.244   Configuring FlashDLNoRMWThreshold=0x200 in order to make sure that option bytes programming is done via read-modify-write
T0978 000:030.256   ConfigTargetSettings() end
T0978 000:030.756   InitTarget() start
T0978 000:030.765    J-Link Script File: Executing InitTarget()
T0978 000:030.770   Determining TrustZone configuration...
T0978 000:051.845     Secure Debug: Enabled (SSD)
T0978 000:051.865   Determining currently configured transfer type by reading the AHB-AP CSW register.
T0978 000:067.517   Transfer type does not match DLM state. Changing transfer type accordingly.
T0978 000:078.034   InitTarget() end
T0978 000:079.688   Could not measure total IR len. TDO is constant high.
T0978 000:230.904   ConfigTargetSettings() start
T0978 000:230.927    J-Link Script File: Executing ConfigTargetSettings()
T0978 000:230.934   Configuring FlashDLNoRMWThreshold=0x200 in order to make sure that option bytes programming is done via read-modify-write
T0978 000:230.947   ConfigTargetSettings() end
T0978 000:230.955   InitTarget() start
T0978 000:230.962    J-Link Script File: Executing InitTarget()
T0978 000:230.968   Determining TrustZone configuration...
T0978 000:252.022     Secure Debug: Enabled (SSD)
T0978 000:252.046   Determining currently configured transfer type by reading the AHB-AP CSW register.
T0978 000:267.966   Transfer type does not match DLM state. Changing transfer type accordingly.
T0978 000:278.723   InitTarget() end
T0978 000:280.309   Could not measure total IR len. TDO is constant high.
T0978 000:280.765 - 250.678ms returns 1
T0978 000:280.784 JLINK_ReadMem(0x400E002C, 0x4 Bytes, ...)
T0978 000:280.951   ConfigTargetSettings() start
T0978 000:280.962    J-Link Script File: Executing ConfigTargetSettings()
T0978 000:280.967   Configuring FlashDLNoRMWThreshold=0x200 in order to make sure that option bytes programming is done via read-modify-write
T0978 000:280.977   ConfigTargetSettings() end
T0978 000:280.983   InitTarget() start
T0978 000:280.989    J-Link Script File: Executing InitTarget()
T0978 000:280.993   Determining TrustZone configuration...
T0978 000:301.973     Secure Debug: Enabled (SSD)
T0978 000:302.027   Determining currently configured transfer type by reading the AHB-AP CSW register.
T0978 000:317.706   Transfer type does not match DLM state. Changing transfer type accordingly.
T0978 000:328.213   InitTarget() end
T0978 000:329.928   Could not measure total IR len. TDO is constant high.
T0978 000:482.122   ConfigTargetSettings() start
T0978 000:482.187    J-Link Script File: Executing ConfigTargetSettings()
T0978 000:482.215   Configuring FlashDLNoRMWThreshold=0x200 in order to make sure that option bytes programming is done via read-modify-write
T0978 000:482.419   ConfigTargetSettings() end
T0978 000:482.468   InitTarget() start
T0978 000:482.497    J-Link Script File: Executing InitTarget()
T0978 000:482.519   Determining TrustZone configuration...
T0978 000:504.032     Secure Debug: Enabled (SSD)
T0978 000:504.052   Determining currently configured transfer type by reading the AHB-AP CSW register.
T0978 000:520.074   Transfer type does not match DLM state. Changing transfer type accordingly.
T0978 000:530.921   InitTarget() end
T0978 000:532.958   Could not measure total IR len. TDO is constant high.
T0978 000:533.590 - 252.812ms returns 1
T0978 000:533.696 JLINK_ReadMem(0xE000EDF0, 0x4 Bytes, ...)
T0978 000:533.884   ConfigTargetSettings() start
T0978 000:533.895    J-Link Script File: Executing ConfigTargetSettings()
T0978 000:533.900   Configuring FlashDLNoRMWThreshold=0x200 in order to make sure that option bytes programming is done via read-modify-write
T0978 000:533.909   ConfigTargetSettings() end
T0978 000:533.916   InitTarget() start
T0978 000:533.922    J-Link Script File: Executing InitTarget()
T0978 000:533.926   Determining TrustZone configuration...
T0978 000:554.779     Secure Debug: Enabled (SSD)
T0978 000:554.794   Determining currently configured transfer type by reading the AHB-AP CSW register.
T0978 000:570.485   Transfer type does not match DLM state. Changing transfer type accordingly.
T0978 000:581.105   InitTarget() end
T0978 000:582.800   Could not measure total IR len. TDO is constant high.
T0978 000:735.628   ConfigTargetSettings() start
T0978 000:735.650    J-Link Script File: Executing ConfigTargetSettings()
T0978 000:735.656   Configuring FlashDLNoRMWThreshold=0x200 in order to make sure that option bytes programming is done via read-modify-write
T0978 000:735.666   ConfigTargetSettings() end
T0978 000:735.673   InitTarget() start
T0978 000:735.679    J-Link Script File: Executing InitTarget()
T0978 000:735.683   Determining TrustZone configuration...
T0978 000:756.529     Secure Debug: Enabled (SSD)
T0978 000:756.551   Determining currently configured transfer type by reading the AHB-AP CSW register.
T0978 000:772.064   Transfer type does not match DLM state. Changing transfer type accordingly.
T0978 000:782.555   InitTarget() end
T0978 000:784.216   Could not measure total IR len. TDO is constant high.
T0978 000:784.666 - 250.976ms returns 1
T0978 000:784.700 JLINK_ReadMem(0xE000EDF0, 0x4 Bytes, ...)
T0978 000:784.848   ConfigTargetSettings() start
T0978 000:784.856    J-Link Script File: Executing ConfigTargetSettings()
T0978 000:784.861   Configuring FlashDLNoRMWThreshold=0x200 in order to make sure that option bytes programming is done via read-modify-write
T0978 000:784.874   ConfigTargetSettings() end
T0978 000:784.881   InitTarget() start
T0978 000:784.886    J-Link Script File: Executing InitTarget()
T0978 000:784.891   Determining TrustZone configuration...
T0978 000:806.100     Secure Debug: Enabled (SSD)
T0978 000:806.125   Determining currently configured transfer type by reading the AHB-AP CSW register.
T0978 000:821.885   Transfer type does not match DLM state. Changing transfer type accordingly.
T0978 000:832.309   InitTarget() end
T0978 000:833.891   Could not measure total IR len. TDO is constant high.
T0978 000:985.688   ConfigTargetSettings() start
T0978 000:985.714    J-Link Script File: Executing ConfigTargetSettings()
T0978 000:985.721   Configuring FlashDLNoRMWThreshold=0x200 in order to make sure that option bytes programming is done via read-modify-write
T0978 000:985.731   ConfigTargetSettings() end
T0978 000:985.738   InitTarget() start
T0978 000:985.743    J-Link Script File: Executing InitTarget()
T0978 000:985.748   Determining TrustZone configuration...
T0978 001:006.754     Secure Debug: Enabled (SSD)
T0978 001:006.773   Determining currently configured transfer type by reading the AHB-AP CSW register.
T0978 001:022.357   Transfer type does not match DLM state. Changing transfer type accordingly.
T0978 001:032.952   InitTarget() end
T0978 001:034.663   Could not measure total IR len. TDO is constant high.
T0978 001:035.143 - 250.449ms returns 1
T0978 001:035.162 JLINK_ReadMem(0x400E001C, 0x4 Bytes, ...)
T0978 001:035.382   ConfigTargetSettings() start
T0978 001:035.393    J-Link Script File: Executing ConfigTargetSettings()
T0978 001:035.398   Configuring FlashDLNoRMWThreshold=0x200 in order to make sure that option bytes programming is done via read-modify-write
T0978 001:035.408   ConfigTargetSettings() end
T0978 001:035.414   InitTarget() start
T0978 001:035.420    J-Link Script File: Executing InitTarget()
T0978 001:035.425   Determining TrustZone configuration...
T0978 001:056.217     Secure Debug: Enabled (SSD)
T0978 001:056.243   Determining currently configured transfer type by reading the AHB-AP CSW register.
T0978 001:071.853   Transfer type does not match DLM state. Changing transfer type accordingly.
T0978 001:082.259   InitTarget() end
T0978 001:083.964   Could not measure total IR len. TDO is constant high.
T0978 001:235.674   ConfigTargetSettings() start
T0978 001:235.694    J-Link Script File: Executing ConfigTargetSettings()
T0978 001:235.701   Configuring FlashDLNoRMWThreshold=0x200 in order to make sure that option bytes programming is done via read-modify-write
T0978 001:235.712   ConfigTargetSettings() end
T0978 001:235.720   InitTarget() start
T0978 001:235.727    J-Link Script File: Executing InitTarget()
T0978 001:235.732   Determining TrustZone configuration...
T0978 001:256.543     Secure Debug: Enabled (SSD)
T0978 001:256.564   Determining currently configured transfer type by reading the AHB-AP CSW register.
T0978 001:272.271   Transfer type does not match DLM state. Changing transfer type accordingly.
T0978 001:282.790   InitTarget() end
T0978 001:284.454   Could not measure total IR len. TDO is constant high.
T0978 001:284.880 - 249.721ms returns 1
T0978 001:284.907 JLINK_ReadMem(0xE000EDF0, 0x4 Bytes, ...)
T0978 001:285.075   ConfigTargetSettings() start
T0978 001:285.082    J-Link Script File: Executing ConfigTargetSettings()
T0978 001:285.087   Configuring FlashDLNoRMWThreshold=0x200 in order to make sure that option bytes programming is done via read-modify-write
T0978 001:285.097   ConfigTargetSettings() end
T0978 001:285.103   InitTarget() start
T0978 001:285.109    J-Link Script File: Executing InitTarget()
T0978 001:285.113   Determining TrustZone configuration...
T0978 001:305.840     Secure Debug: Enabled (SSD)
T0978 001:305.860   Determining currently configured transfer type by reading the AHB-AP CSW register.
T0978 001:321.578   Transfer type does not match DLM state. Changing transfer type accordingly.
T0978 001:331.957   InitTarget() end
T0978 001:333.632   Could not measure total IR len. TDO is constant high.
T0978 001:485.879   ConfigTargetSettings() start
T0978 001:485.911    J-Link Script File: Executing ConfigTargetSettings()
T0978 001:485.922   Configuring FlashDLNoRMWThreshold=0x200 in order to make sure that option bytes programming is done via read-modify-write
T0978 001:485.940   ConfigTargetSettings() end
T0978 001:485.954   InitTarget() start
T0978 001:485.965    J-Link Script File: Executing InitTarget()
T0978 001:485.974   Determining TrustZone configuration...
T0978 001:506.939     Secure Debug: Enabled (SSD)
T0978 001:506.959   Determining currently configured transfer type by reading the AHB-AP CSW register.
T0978 001:522.737   Transfer type does not match DLM state. Changing transfer type accordingly.
T0978 001:533.340   InitTarget() end
T0978 001:534.931   Could not measure total IR len. TDO is constant high.
T0978 001:535.384 - 250.487ms returns 1
T0978 001:535.857 JLINK_ReadMem(0x400E0018, 0x4 Bytes, ...)
T0978 001:536.049   ConfigTargetSettings() start
T0978 001:536.064    J-Link Script File: Executing ConfigTargetSettings()
T0978 001:536.071   Configuring FlashDLNoRMWThreshold=0x200 in order to make sure that option bytes programming is done via read-modify-write
T0978 001:536.084   ConfigTargetSettings() end
T0978 001:536.100   InitTarget() start
T0978 001:536.108    J-Link Script File: Executing InitTarget()
T0978 001:536.114   Determining TrustZone configuration...
T0978 001:556.859     Secure Debug: Enabled (SSD)
T0978 001:556.885   Determining currently configured transfer type by reading the AHB-AP CSW register.
T0978 001:572.522   Transfer type does not match DLM state. Changing transfer type accordingly.
T0978 001:582.912   InitTarget() end
T0978 001:584.527   Could not measure total IR len. TDO is constant high.
T0978 001:736.533   ConfigTargetSettings() start
T0978 001:736.588    J-Link Script File: Executing ConfigTargetSettings()
T0978 001:736.607   Configuring FlashDLNoRMWThreshold=0x200 in order to make sure that option bytes programming is done via read-modify-write
T0978 001:736.637   ConfigTargetSettings() end
T0978 001:736.659   InitTarget() start
T0978 001:736.678    J-Link Script File: Executing InitTarget()
T0978 001:736.693   Determining TrustZone configuration...
T0978 001:757.724     Secure Debug: Enabled (SSD)
T0978 001:757.742   Determining currently configured transfer type by reading the AHB-AP CSW register.
T0978 001:773.483   Transfer type does not match DLM state. Changing transfer type accordingly.
T0978 001:784.047   InitTarget() end
T0978 001:785.573   Could not measure total IR len. TDO is constant high.
T0978 001:786.020 - 250.170ms returns 1
T0978 001:786.063 JLINK_ReadMem(0xE000EDF0, 0x4 Bytes, ...)
T0978 001:786.252   ConfigTargetSettings() start
T0978 001:786.261    J-Link Script File: Executing ConfigTargetSettings()
T0978 001:786.266   Configuring FlashDLNoRMWThreshold=0x200 in order to make sure that option bytes programming is done via read-modify-write
T0978 001:786.275   ConfigTargetSettings() end
T0978 001:786.281   InitTarget() start
T0978 001:786.287    J-Link Script File: Executing InitTarget()
T0978 001:786.291   Determining TrustZone configuration...
T0978 001:807.283     Secure Debug: Enabled (SSD)
T0978 001:807.302   Determining currently configured transfer type by reading the AHB-AP CSW register.
T0978 001:822.982   Transfer type does not match DLM state. Changing transfer type accordingly.
T0978 001:833.521   InitTarget() end
T0978 001:835.013   Could not measure total IR len. TDO is constant high.
T0978 001:986.230   ConfigTargetSettings() start
T0978 001:986.297    J-Link Script File: Executing ConfigTargetSettings()
T0978 001:986.323   Configuring FlashDLNoRMWThreshold=0x200 in order to make sure that option bytes programming is done via read-modify-write
T0978 001:986.367   ConfigTargetSettings() end
T0978 001:986.400   InitTarget() start
T0978 001:986.430    J-Link Script File: Executing InitTarget()
T0978 001:986.451   Determining TrustZone configuration...
T0978 002:007.722     Secure Debug: Enabled (SSD)
T0978 002:007.742   Determining currently configured transfer type by reading the AHB-AP CSW register.
T0978 002:023.280   Transfer type does not match DLM state. Changing transfer type accordingly.
T0978 002:033.858   InitTarget() end
T0978 002:035.538   Could not measure total IR len. TDO is constant high.
T0978 002:036.071 - 250.015ms returns 1
T0978 002:036.094 JLINK_ReadMem(0x400E0020, 0x4 Bytes, ...)
T0978 002:036.294   ConfigTargetSettings() start
T0978 002:036.310    J-Link Script File: Executing ConfigTargetSettings()
T0978 002:036.316   Configuring FlashDLNoRMWThreshold=0x200 in order to make sure that option bytes programming is done via read-modify-write
T0978 002:036.328   ConfigTargetSettings() end
T0978 002:036.335   InitTarget() start
T0978 002:036.342    J-Link Script File: Executing InitTarget()
T0978 002:036.348   Determining TrustZone configuration...
T0978 002:057.299     Secure Debug: Enabled (SSD)
T0978 002:057.323   Determining currently configured transfer type by reading the AHB-AP CSW register.
T0978 002:072.986   Transfer type does not match DLM state. Changing transfer type accordingly.
T0978 002:083.481   InitTarget() end
T0978 002:085.197   Could not measure total IR len. TDO is constant high.
T0978 002:238.015   ConfigTargetSettings() start
T0978 002:238.032    J-Link Script File: Executing ConfigTargetSettings()
T0978 002:238.037   Configuring FlashDLNoRMWThreshold=0x200 in order to make sure that option bytes programming is done via read-modify-write
T0978 002:238.047   ConfigTargetSettings() end
T0978 002:238.054   InitTarget() start
T0978 002:238.060    J-Link Script File: Executing InitTarget()
T0978 002:238.064   Determining TrustZone configuration...
T0978 002:258.959     Secure Debug: Enabled (SSD)
T0978 002:258.991   Determining currently configured transfer type by reading the AHB-AP CSW register.
T0978 002:274.701   Transfer type does not match DLM state. Changing transfer type accordingly.
T0978 002:285.305   InitTarget() end
T0978 002:286.910   Could not measure total IR len. TDO is constant high.
T0978 002:287.367 - 251.280ms returns 1
T0978 002:287.394 JLINK_ReadMem(0xE000EDF0, 0x4 Bytes, ...)
T0978 002:287.651   ConfigTargetSettings() start
T0978 002:287.661    J-Link Script File: Executing ConfigTargetSettings()
T0978 002:287.666   Configuring FlashDLNoRMWThreshold=0x200 in order to make sure that option bytes programming is done via read-modify-write
T0978 002:287.676   ConfigTargetSettings() end
T0978 002:287.682   InitTarget() start
T0978 002:287.688    J-Link Script File: Executing InitTarget()
T0978 002:287.692   Determining TrustZone configuration...
T0978 002:308.628     Secure Debug: Enabled (SSD)
T0978 002:308.650   Determining currently configured transfer type by reading the AHB-AP CSW register.
T0978 002:324.290   Transfer type does not match DLM state. Changing transfer type accordingly.
T0978 002:334.825   InitTarget() end
T0978 002:336.452   Could not measure total IR len. TDO is constant high.
T0978 002:489.101   ConfigTargetSettings() start
T0978 002:489.121    J-Link Script File: Executing ConfigTargetSettings()
T0978 002:489.128   Configuring FlashDLNoRMWThreshold=0x200 in order to make sure that option bytes programming is done via read-modify-write
T0978 002:489.141   ConfigTargetSettings() end
T0978 002:489.149   InitTarget() start
T0978 002:489.157    J-Link Script File: Executing InitTarget()
T0978 002:489.162   Determining TrustZone configuration...
T0978 002:510.215     Secure Debug: Enabled (SSD)
T0978 002:510.242   Determining currently configured transfer type by reading the AHB-AP CSW register.
T0978 002:525.784   Transfer type does not match DLM state. Changing transfer type accordingly.
T0978 002:536.390   InitTarget() end
T0978 002:537.947   Could not measure total IR len. TDO is constant high.
T0978 002:538.403 - 251.015ms returns 1
T0978 002:538.443 JLINK_ReadMem(0x400E0028, 0x4 Bytes, ...)
T0978 002:538.569   ConfigTargetSettings() start
T0978 002:538.577    J-Link Script File: Executing ConfigTargetSettings()
T0978 002:538.582   Configuring FlashDLNoRMWThreshold=0x200 in order to make sure that option bytes programming is done via read-modify-write
T0978 002:538.591   ConfigTargetSettings() end
T0978 002:538.597   InitTarget() start
T0978 002:538.603    J-Link Script File: Executing InitTarget()
T0978 002:538.608   Determining TrustZone configuration...
T0978 002:559.421     Secure Debug: Enabled (SSD)
T0978 002:559.448   Determining currently configured transfer type by reading the AHB-AP CSW register.
T0978 002:575.149   Transfer type does not match DLM state. Changing transfer type accordingly.
T0978 002:585.594   InitTarget() end
T0978 002:587.340   Could not measure total IR len. TDO is constant high.
T0978 002:739.537   ConfigTargetSettings() start
T0978 002:739.579    J-Link Script File: Executing ConfigTargetSettings()
T0978 002:739.601   Configuring FlashDLNoRMWThreshold=0x200 in order to make sure that option bytes programming is done via read-modify-write
T0978 002:739.628   ConfigTargetSettings() end
T0978 002:739.636   InitTarget() start
T0978 002:739.642    J-Link Script File: Executing InitTarget()
T0978 002:739.646   Determining TrustZone configuration...
T0978 002:760.463     Secure Debug: Enabled (SSD)
T0978 002:760.482   Determining currently configured transfer type by reading the AHB-AP CSW register.
T0978 002:776.153   Transfer type does not match DLM state. Changing transfer type accordingly.
T0978 002:786.507   InitTarget() end
T0978 002:788.204   Could not measure total IR len. TDO is constant high.
T0978 002:788.656 - 250.219ms returns 1
T0978 002:788.682 JLINK_ReadMem(0xE000EDF0, 0x4 Bytes, ...)
T0978 002:788.846   ConfigTargetSettings() start
T0978 002:788.857    J-Link Script File: Executing ConfigTargetSettings()
T0978 002:788.862   Configuring FlashDLNoRMWThreshold=0x200 in order to make sure that option bytes programming is done via read-modify-write
T0978 002:788.871   ConfigTargetSettings() end
T0978 002:788.877   InitTarget() start
T0978 002:788.883    J-Link Script File: Executing InitTarget()
T0978 002:788.887   Determining TrustZone configuration...
T0978 002:809.533     Secure Debug: Enabled (SSD)
T0978 002:809.555   Determining currently configured transfer type by reading the AHB-AP CSW register.
T0978 002:825.211   Transfer type does not match DLM state. Changing transfer type accordingly.
T0978 002:835.710   InitTarget() end
T0978 002:837.405   Could not measure total IR len. TDO is constant high.
T0978 002:988.907   ConfigTargetSettings() start
T0978 002:988.928    J-Link Script File: Executing ConfigTargetSettings()
T0978 002:988.935   Configuring FlashDLNoRMWThreshold=0x200 in order to make sure that option bytes programming is done via read-modify-write
T0978 002:988.945   ConfigTargetSettings() end
T0978 002:988.952   InitTarget() start
T0978 002:988.957    J-Link Script File: Executing InitTarget()
T0978 002:988.962   Determining TrustZone configuration...
T0978 003:009.865     Secure Debug: Enabled (SSD)
T0978 003:009.889   Determining currently configured transfer type by reading the AHB-AP CSW register.
T0978 003:025.680   Transfer type does not match DLM state. Changing transfer type accordingly.
T0978 003:036.083   InitTarget() end
T0978 003:037.775   Could not measure total IR len. TDO is constant high.
T0978 003:038.234 - 249.557ms returns 1
T0978 003:038.252 JLINK_ReadMem(0x400E0024, 0x4 Bytes, ...)
T0978 003:038.458   ConfigTargetSettings() start
T0978 003:038.468    J-Link Script File: Executing ConfigTargetSettings()
T0978 003:038.473   Configuring FlashDLNoRMWThreshold=0x200 in order to make sure that option bytes programming is done via read-modify-write
T0978 003:038.482   ConfigTargetSettings() end
T0978 003:038.488   InitTarget() start
T0978 003:038.494    J-Link Script File: Executing InitTarget()
T0978 003:038.498   Determining TrustZone configuration...
T0978 003:059.582     Secure Debug: Enabled (SSD)
T0978 003:059.603   Determining currently configured transfer type by reading the AHB-AP CSW register.
T0978 003:075.350   Transfer type does not match DLM state. Changing transfer type accordingly.
T0978 003:085.987   InitTarget() end
T0978 003:087.625   Could not measure total IR len. TDO is constant high.
T0978 003:239.812   ConfigTargetSettings() start
T0978 003:239.858    J-Link Script File: Executing ConfigTargetSettings()
T0978 003:239.864   Configuring FlashDLNoRMWThreshold=0x200 in order to make sure that option bytes programming is done via read-modify-write
T0978 003:239.874   ConfigTargetSettings() end
T0978 003:239.882   InitTarget() start
T0978 003:239.887    J-Link Script File: Executing InitTarget()
T0978 003:239.892   Determining TrustZone configuration...
T0978 003:260.679     Secure Debug: Enabled (SSD)
T0978 003:260.695   Determining currently configured transfer type by reading the AHB-AP CSW register.
T0978 003:276.398   Transfer type does not match DLM state. Changing transfer type accordingly.
T0978 003:286.877   InitTarget() end
T0978 003:288.570   Could not measure total IR len. TDO is constant high.
T0978 003:289.058 - 250.813ms returns 1
T0978 003:289.087 JLINK_ReadMem(0xE000EDF0, 0x4 Bytes, ...)
T0978 003:289.335   ConfigTargetSettings() start
T0978 003:289.353    J-Link Script File: Executing ConfigTargetSettings()
T0978 003:289.359   Configuring FlashDLNoRMWThreshold=0x200 in order to make sure that option bytes programming is done via read-modify-write
T0978 003:289.370   ConfigTargetSettings() end
T0978 003:289.378   InitTarget() start
T0978 003:289.384    J-Link Script File: Executing InitTarget()
T0978 003:289.389   Determining TrustZone configuration...
T0978 003:310.277     Secure Debug: Enabled (SSD)
T0978 003:310.306   Determining currently configured transfer type by reading the AHB-AP CSW register.
T0978 003:325.807   Transfer type does not match DLM state. Changing transfer type accordingly.
T0978 003:336.354   InitTarget() end
